
T3690 059:816 SEGGER J-Link V6.18a Log File (0006ms, 0307ms total)
T3690 059:816 DLL Compiled: Aug 11 2017 17:53:19 (0006ms, 0307ms total)
T3690 059:816 Logging started @ 2018-04-02 22:00 (0006ms, 0307ms total)
T3690 059:827 JLINK_ExecCommand("Device = ATSAMV71Q21", ...).   returns 0x00 (0003ms, 0310ms total)
T3690 059:999 JLINK_ExecCommand("ProjectFile = C:\Users\Daniel Gonzalez\Dropbox (UFL)\Spring2018\Senior_Design\SeniorDesignRepo\Atmel_Projects\GatorScribe\GatorScribe\jlink.config", ...).   returns 0x00 (0011ms, 0321ms total)
T3690 060:015 JLINK_ExecCommand("Device = ATSAMV71Q21", ...).   returns 0x00 (0004ms, 0325ms total)
T3690 060:019 JLINK_TIF_Select(JLINKARM_TIF_SWD)  returns 0x00 (0004ms, 0329ms total)
T3690 060:023 JLINK_SetSpeed(4000) (0000ms, 0329ms total)
T3690 060:023 JLINK_ResetPullsRESET(OFF) (0000ms, 0329ms total)
T3690 060:023 JLINK_Connect() >0x10B TIF>Found SW-DP with ID 0x0BD11477 >0x0D TIF> >0x28 TIF> >0x0D TIF> >0x28 TIF> >0x0D TIF> >0x28 TIF> >0x0D TIF> >0x28 TIF> >0x0D TIF> >0x21 TIF> >0x0D TIF> >0x28 TIF>Scanning AP map to find all available APs >0x0D TIF> >0x28 TIF> >0x0D TIF> >0x21 TIF> >0x0D TIF> >0x21 TIF> >0x0D TIF> >0x28 TIF> >0x0D TIF> >0x21 TIF> >0x0D TIF> >0x21 TIF>AP[1]: Stopped AP scan as end of AP map has been reachedAP[0]: AHB-AP (IDR: 0x04770041)Iterating through AP map to find AHB-AP to use
 >0x42 TIF> >0x28 TIF> >0x0D TIF> >0x21 TIF> >0x0D TIF> >0x21 TIF> >0x42 TIF> >0x28 TIF> >0x0D TIF> >0x28 TIF> >0x0D TIF> >0x28 TIF> >0x0D TIF> >0x21 TIF> >0x0D TIF> >0x21 TIF>AP[0]: Core foundAP[0]: AHB-AP ROM base: 0xE00FD000 >0x0D TIF> >0x28 TIF> >0x0D TIF> >0x28 TIF> >0x0D TIF> >0x28 TIF> >0x0D TIF> >0x21 TIF> >0x0D TIF> >0x21 TIF>CPUID register: 0x411FC271. Implementer code: 0x41 (ARM)Found Cortex-M7 r1p1, Little endian. -- CPU_ReadMem(4 bytes @ 0xE000EDF0) -- CPU_WriteMem(4 bytes @ 0xE000EDF0)
 -- CPU_ReadMem(4 bytes @ 0xE0002000) -- CPU_ReadMem(4 bytes @ 0xE000EDFC) -- CPU_WriteMem(4 bytes @ 0xE000EDFC) -- CPU_ReadMem(4 bytes @ 0xE0001000) -- CPU_WriteMem(4 bytes @ 0xE0001000) -- CPU_ReadMem(4 bytes @ 0xE000ED88) -- CPU_WriteMem(4 bytes @ 0xE000ED88) -- CPU_ReadMem(4 bytes @ 0xE000ED88) -- CPU_WriteMem(4 bytes @ 0xE000ED88)CoreSight components:ROMTbl[0] @ E00FD000 -- CPU_ReadMem(16 bytes @ 0xE00FD000) -- CPU_ReadMem(16 bytes @ 0xE00FEFF0) -- CPU_ReadMem(16 bytes @ 0xE00FEFE0)
ROMTbl[0][0]: E00FE000, CID: B105100D, PID: 000BB4C8 ROM TableROMTbl[1] @ E00FE000 -- CPU_ReadMem(16 bytes @ 0xE00FE000) -- CPU_ReadMem(16 bytes @ 0xE00FFFF0) -- CPU_ReadMem(16 bytes @ 0xE00FFFE0)ROMTbl[1][0]: E00FF000, CID: B105100D, PID: 000BB4C7 ROM TableROMTbl[2] @ E00FF000 -- CPU_ReadMem(16 bytes @ 0xE00FF000) -- CPU_ReadMem(16 bytes @ 0xE000EFF0) -- CPU_ReadMem(16 bytes @ 0xE000EFE0)ROMTbl[2][0]: E000E000, CID: B105E00D, PID: 000BB00C SCS -- CPU_ReadMem(16 bytes @ 0xE0001FF0)
 -- CPU_ReadMem(16 bytes @ 0xE0001FE0)ROMTbl[2][1]: E0001000, CID: B105E00D, PID: 000BB002 DWT -- CPU_ReadMem(16 bytes @ 0xE0002FF0) -- CPU_ReadMem(16 bytes @ 0xE0002FE0)ROMTbl[2][2]: E0002000, CID: B105E00D, PID: 000BB00E FPB -- CPU_ReadMem(16 bytes @ 0xE0000FF0) -- CPU_ReadMem(16 bytes @ 0xE0000FE0)ROMTbl[2][3]: E0000000, CID: B105E00D, PID: 000BB001 ITM -- CPU_ReadMem(16 bytes @ 0xE00FF010) -- CPU_ReadMem(16 bytes @ 0xE0041FF0) -- CPU_ReadMem(16 bytes @ 0xE0041FE0)
ROMTbl[1][1]: E0041000, CID: B105900D, PID: 001BB975 ETM-M7 -- CPU_ReadMem(16 bytes @ 0xE00FE010) -- CPU_ReadMem(16 bytes @ 0xE0040FF0) -- CPU_ReadMem(16 bytes @ 0xE0040FE0)ROMTbl[0][1]: E0040000, CID: B105900D, PID: 000BB9A9 TPIU-M7 -- CPU_ReadMem(16 bytes @ 0xE00FD010) -- CPU_ReadMem(4 bytes @ 0xE000ED78)Cache: Separate I- and D-cache. (0272ms, 0601ms total)
T3690 060:023  -- CPU_WriteMem(4 bytes @ 0xE000ED84) -- CPU_ReadMem(4 bytes @ 0xE000ED80)I-Cache L1: 16 KB, 256 Sets, 32 Bytes/Line, 2-Way -- CPU_WriteMem(4 bytes @ 0xE000ED84) -- CPU_ReadMem(4 bytes @ 0xE000ED80)D-Cache L1: 16 KB, 128 Sets, 32 Bytes/Line, 4-Way  returns 0x00 (0275ms, 0604ms total)
T3690 060:298 JLINK_Halt()  returns 0x00 (0027ms, 0631ms total)
T3690 060:325 JLINK_WriteMem(0x400E0C04, 0x0004 Bytes, ...) - Data: 0B 01 00 5A -- CPU_WriteMem(4 bytes @ 0x400E0C04)  returns 0x04 (0002ms, 0633ms total)
T3690 060:327 JLINK_ReadMem (0x400E0C08, 0x0004 Bytes, ...) -- CPU_ReadMem(4 bytes @ 0x400E0C08) - Data: 01 00 00 00  returns 0x00 (0002ms, 0635ms total)
T3690 060:329 JLINK_SetResetType(JLINKARM_CM3_RESET_TYPE_NORMAL)  returns JLINKARM_CM3_RESET_TYPE_NORMAL (0000ms, 0635ms total)
T3690 060:329 JLINK_Reset() -- CPU_WriteMem(4 bytes @ 0xE000EDF0) -- CPU_WriteMem(4 bytes @ 0xE000EDFC) >0x35 TIF> -- CPU_WriteMem(4 bytes @ 0xE000ED0C) >0x0D TIF> >0x28 TIF> -- CPU_ReadMem(4 bytes @ 0xE000EDF0) -- CPU_ReadMem(4 bytes @ 0xE000EDF0) -- CPU_WriteMem(4 bytes @ 0xE000EDF0) -- CPU_WriteMem(4 bytes @ 0xE000EDFC) -- CPU_ReadMem(4 bytes @ 0xE000EDF0) -- CPU_WriteMem(4 bytes @ 0xE0002000) -- CPU_ReadMem(4 bytes @ 0xE000EDFC) -- CPU_ReadMem(4 bytes @ 0xE0001000) (0138ms, 0773ms total)
T3690 060:486 JLINK_JTAG_GetDeviceID(DeviceIndex = 0)  returns 0x00 (0000ms, 0773ms total)
T3690 060:486 JLINK_ReadMemU32(0x400E0940, 0x0001 Items, ...) -- CPU_ReadMem(4 bytes @ 0x400E0940) - Data: 01 0E 22 A1  returns 0x01 (0002ms, 0775ms total)
T3690 060:488 JLINK_ReadMemU32(0x400E0944, 0x0001 Items, ...) -- CPU_ReadMem(4 bytes @ 0x400E0944) - Data: 02 00 00 00  returns 0x01 (0001ms, 0776ms total)
T3690 060:490 JLINK_WriteMem(0x400E0C04, 0x0004 Bytes, ...) - Data: 05 00 00 5A -- CPU_WriteMem(4 bytes @ 0x400E0C04)  returns 0x04 (0003ms, 0779ms total)
T3690 060:493 JLINK_ReadMem (0x400E0C08, 0x0004 Bytes, ...) -- CPU_ReadMem(4 bytes @ 0x400E0C08) - Data: 00 00 00 00  returns 0x00 (0000ms, 0779ms total)
T3690 060:496 JLINK_ReadMem (0x400E0C08, 0x0004 Bytes, ...) -- CPU_ReadMem(4 bytes @ 0x400E0C08) - Data: 00 00 00 00  returns 0x00 (0000ms, 0779ms total)
T3690 060:501 JLINK_ReadMem (0x400E0C08, 0x0004 Bytes, ...) -- CPU_ReadMem(4 bytes @ 0x400E0C08) - Data: 00 00 00 00  returns 0x00 (0001ms, 0780ms total)
T09D4 060:503 JLINK_IsHalted()  returns TRUE (0000ms, 0780ms total)
T09D4 060:503 JLINK_GetMOEs(...) -- CPU_ReadMem(4 bytes @ 0xE000ED30)  returns 0x01 (0000ms, 0780ms total)
T09D4 060:504 JLINK_ReadReg(R15 (PC))  returns 0x00402438 (0000ms, 0780ms total)
T3690 060:518 JLINK_ReadMem (0x400E0C08, 0x0004 Bytes, ...) -- CPU_ReadMem(4 bytes @ 0x400E0C08) - Data: 00 00 00 00  returns 0x00 (0000ms, 0780ms total)
T3690 060:585 JLINK_ReadMem (0x400E0C08, 0x0004 Bytes, ...) -- CPU_ReadMem(4 bytes @ 0x400E0C08) - Data: 00 00 00 00  returns 0x00 (0020ms, 0800ms total)
T09D4 060:768 JLINK_IsHalted()  returns TRUE (0000ms, 0800ms total)
T3690 060:983 JLINK_ReadMem (0x400E0C08, 0x0004 Bytes, ...) -- CPU_ReadMem(4 bytes @ 0x400E0C08) - Data: 00 00 00 00  returns 0x00 (0001ms, 0801ms total)
T09D4 060:984 JLINK_IsHalted()  returns TRUE (0001ms, 0802ms total)
T09D4 061:187 JLINK_IsHalted()  returns TRUE (0000ms, 0802ms total)
T09D4 061:388 JLINK_IsHalted()  returns TRUE (0000ms, 0802ms total)
T09D4 061:620 JLINK_IsHalted()  returns TRUE (0015ms, 0817ms total)
T09D4 061:836 JLINK_IsHalted()  returns TRUE (0000ms, 0802ms total)
T3690 061:985 JLINK_ReadMem (0x400E0C08, 0x0004 Bytes, ...) -- CPU_ReadMem(4 bytes @ 0x400E0C08) - Data: 00 00 00 00  returns 0x00 (0003ms, 0805ms total)
T3690 061:991 JLINK_ReadMem (0x400E0C08, 0x0004 Bytes, ...) -- CPU_ReadMem(4 bytes @ 0x400E0C08) - Data: 00 00 00 00  returns 0x00 (0002ms, 0808ms total)
T3690 061:995 JLINK_ReadMem (0x400E0C08, 0x0004 Bytes, ...) -- CPU_ReadMem(4 bytes @ 0x400E0C08) - Data: 00 00 00 00  returns 0x00 (0002ms, 0810ms total)
T3690 062:006 JLINK_ReadMem (0x400E0C08, 0x0004 Bytes, ...) -- CPU_ReadMem(4 bytes @ 0x400E0C08) - Data: 00 00 00 00  returns 0x00 (0001ms, 0811ms total)
T3690 062:023 JLINK_ReadMem (0x400E0C08, 0x0004 Bytes, ...) -- CPU_ReadMem(4 bytes @ 0x400E0C08) - Data: 00 00 00 00  returns 0x00 (0000ms, 0811ms total)
T09D4 062:037 JLINK_IsHalted()  returns TRUE (0000ms, 0811ms total)
T3690 062:088 JLINK_ReadMem (0x400E0C08, 0x0004 Bytes, ...) -- CPU_ReadMem(4 bytes @ 0x400E0C08) - Data: 00 00 00 00  returns 0x00 (0001ms, 0812ms total)
T09D4 062:238 JLINK_IsHalted()  returns TRUE (0000ms, 0812ms total)
T3690 062:346 JLINK_ReadMem (0x400E0C08, 0x0004 Bytes, ...) -- CPU_ReadMem(4 bytes @ 0x400E0C08) - Data: 00 00 00 00  returns 0x00 (0001ms, 0813ms total)
T09D4 062:438 JLINK_IsHalted()  returns TRUE (0000ms, 0813ms total)
T09D4 062:640 JLINK_IsHalted()  returns TRUE (0000ms, 0813ms total)
T09D4 062:857 JLINK_IsHalted()  returns TRUE (0002ms, 0815ms total)
T09D4 063:060 JLINK_IsHalted()  returns TRUE (0000ms, 0813ms total)
T09D4 063:260 JLINK_IsHalted()  returns TRUE (0000ms, 0813ms total)
T3690 063:349 JLINK_ReadMem (0x400E0C08, 0x0004 Bytes, ...) -- CPU_ReadMem(4 bytes @ 0x400E0C08) - Data: 00 00 00 00  returns 0x00 (0000ms, 0813ms total)
T3690 063:350 JLINK_ReadMem (0x400E0C08, 0x0004 Bytes, ...) -- CPU_ReadMem(4 bytes @ 0x400E0C08) - Data: 00 00 00 00  returns 0x00 (0001ms, 0814ms total)
T3690 063:352 JLINK_ReadMem (0x400E0C08, 0x0004 Bytes, ...) -- CPU_ReadMem(4 bytes @ 0x400E0C08) - Data: 00 00 00 00  returns 0x00 (0000ms, 0814ms total)
T3690 063:362 JLINK_ReadMem (0x400E0C08, 0x0004 Bytes, ...) -- CPU_ReadMem(4 bytes @ 0x400E0C08) - Data: 00 00 00 00  returns 0x00 (0001ms, 0815ms total)
T3690 063:388 JLINK_ReadMem (0x400E0C08, 0x0004 Bytes, ...) -- CPU_ReadMem(4 bytes @ 0x400E0C08) - Data: 00 00 00 00  returns 0x00 (0016ms, 0831ms total)
T09D4 063:463 JLINK_IsHalted()  returns TRUE (0001ms, 0832ms total)
T3690 063:468 JLINK_ReadMem (0x400E0C08, 0x0004 Bytes, ...) -- CPU_ReadMem(4 bytes @ 0x400E0C08) - Data: 00 00 00 00  returns 0x00 (0001ms, 0832ms total)
T09D4 063:665 JLINK_IsHalted()  returns TRUE (0000ms, 0832ms total)
T3690 063:726 JLINK_ReadMem (0x400E0C08, 0x0004 Bytes, ...) -- CPU_ReadMem(4 bytes @ 0x400E0C08) - Data: 00 00 00 00  returns 0x00 (0001ms, 0833ms total)
T09D4 063:865 JLINK_IsHalted()  returns TRUE (0000ms, 0833ms total)
T09D4 064:065 JLINK_IsHalted()  returns TRUE (0001ms, 0834ms total)
T09D4 064:266 JLINK_IsHalted()  returns TRUE (0000ms, 0833ms total)
T09D4 064:467 JLINK_IsHalted()  returns TRUE (0000ms, 0833ms total)
T09D4 064:669 JLINK_IsHalted()  returns TRUE (0001ms, 0834ms total)
T3690 064:728 JLINK_ReadMem (0x400E0C08, 0x0004 Bytes, ...) -- CPU_ReadMem(4 bytes @ 0x400E0C08) - Data: 00 00 00 00  returns 0x00 (0001ms, 0834ms total)
T3690 064:730 JLINK_ReadMem (0x400E0C08, 0x0004 Bytes, ...) -- CPU_ReadMem(4 bytes @ 0x400E0C08) - Data: 00 00 00 00  returns 0x00 (0000ms, 0834ms total)
T3690 064:731 JLINK_ReadMem (0x400E0C08, 0x0004 Bytes, ...) -- CPU_ReadMem(4 bytes @ 0x400E0C08) - Data: 00 00 00 00  returns 0x00 (0001ms, 0835ms total)
T3690 064:741 JLINK_ReadMem (0x400E0C08, 0x0004 Bytes, ...) -- CPU_ReadMem(4 bytes @ 0x400E0C08) - Data: 00 00 00 00  returns 0x00 (0001ms, 0836ms total)
T3690 064:759 JLINK_ReadMem (0x400E0C08, 0x0004 Bytes, ...) -- CPU_ReadMem(4 bytes @ 0x400E0C08) - Data: 00 00 00 00  returns 0x00 (0001ms, 0837ms total)
T3690 064:826 JLINK_ReadMem (0x400E0C08, 0x0004 Bytes, ...) -- CPU_ReadMem(4 bytes @ 0x400E0C08) - Data: 00 00 00 00  returns 0x00 (0001ms, 0838ms total)
T09D4 064:871 JLINK_IsHalted()  returns TRUE (0000ms, 0838ms total)
T09D4 065:072 JLINK_IsHalted()  returns TRUE (0000ms, 0838ms total)
T3690 065:090 JLINK_ReadMem (0x400E0C08, 0x0004 Bytes, ...) -- CPU_ReadMem(4 bytes @ 0x400E0C08) - Data: 00 00 00 00  returns 0x00 (0013ms, 0851ms total)
T09D4 065:272 JLINK_IsHalted()  returns TRUE (0000ms, 0851ms total)
T09D4 065:474 JLINK_IsHalted()  returns TRUE (0000ms, 0851ms total)
T09D4 065:674 JLINK_IsHalted()  returns TRUE (0000ms, 0851ms total)
T09D4 065:874 JLINK_IsHalted()  returns TRUE (0001ms, 0852ms total)
T09D4 066:078 JLINK_IsHalted()  returns TRUE (0001ms, 0852ms total)
T3690 066:106 JLINK_ReadMem (0x400E0C08, 0x0004 Bytes, ...) -- CPU_ReadMem(4 bytes @ 0x400E0C08) - Data: 00 00 00 00  returns 0x00 (0001ms, 0852ms total)
T3690 066:108 JLINK_ReadMem (0x400E0C08, 0x0004 Bytes, ...) -- CPU_ReadMem(4 bytes @ 0x400E0C08) - Data: 00 00 00 00  returns 0x00 (0000ms, 0852ms total)
T3690 066:109 JLINK_ReadMem (0x400E0C08, 0x0004 Bytes, ...) -- CPU_ReadMem(4 bytes @ 0x400E0C08) - Data: 00 00 00 00  returns 0x00 (0001ms, 0853ms total)
T3690 066:115 JLINK_ReadMem (0x400E0C08, 0x0004 Bytes, ...) -- CPU_ReadMem(4 bytes @ 0x400E0C08) - Data: 00 00 00 00  returns 0x00 (0002ms, 0855ms total)
T3690 066:133 JLINK_ReadMem (0x400E0C08, 0x0004 Bytes, ...) -- CPU_ReadMem(4 bytes @ 0x400E0C08) - Data: 00 00 00 00  returns 0x00 (0001ms, 0856ms total)
T3690 066:204 JLINK_ReadMem (0x400E0C08, 0x0004 Bytes, ...) -- CPU_ReadMem(4 bytes @ 0x400E0C08) - Data: 00 00 00 00  returns 0x00 (0002ms, 0858ms total)
T09D4 066:310 JLINK_IsHalted()  returns TRUE (0000ms, 0858ms total)
T3690 066:463 JLINK_ReadMem (0x400E0C08, 0x0004 Bytes, ...) -- CPU_ReadMem(4 bytes @ 0x400E0C08) - Data: 00 00 00 00  returns 0x00 (0000ms, 0858ms total)
T09D4 066:515 JLINK_IsHalted()  returns TRUE (0001ms, 0859ms total)
T09D4 066:717 JLINK_IsHalted()  returns TRUE (0000ms, 0858ms total)
T09D4 066:919 JLINK_IsHalted()  returns TRUE (0000ms, 0858ms total)
T09D4 067:119 JLINK_IsHalted()  returns TRUE (0001ms, 0859ms total)
T09D4 067:329 JLINK_IsHalted()  returns TRUE (0000ms, 0858ms total)
T3690 067:472 JLINK_ReadMem (0x400E0C08, 0x0004 Bytes, ...) -- CPU_ReadMem(4 bytes @ 0x400E0C08) - Data: 00 00 00 00  returns 0x00 (0002ms, 0860ms total)
T3690 067:475 JLINK_ReadMem (0x400E0C08, 0x0004 Bytes, ...) -- CPU_ReadMem(4 bytes @ 0x400E0C08) - Data: 00 00 00 00  returns 0x00 (0014ms, 0874ms total)
T3690 067:495 JLINK_ReadMem (0x400E0C08, 0x0004 Bytes, ...) -- CPU_ReadMem(4 bytes @ 0x400E0C08) - Data: 00 00 00 00  returns 0x00 (0015ms, 0889ms total)
T3690 067:515 JLINK_ReadMem (0x400E0C08, 0x0004 Bytes, ...) -- CPU_ReadMem(4 bytes @ 0x400E0C08) - Data: 00 00 00 00  returns 0x00 (0002ms, 0891ms total)
T09D4 067:550 JLINK_IsHalted()  returns TRUE (0000ms, 0891ms total)
T3690 067:550 JLINK_ReadMem (0x400E0C08, 0x0004 Bytes, ...) -- CPU_ReadMem(4 bytes @ 0x400E0C08) - Data: 00 00 00 00  returns 0x00 (0001ms, 0892ms total)
T3690 067:616 JLINK_ReadMem (0x400E0C08, 0x0004 Bytes, ...) -- CPU_ReadMem(4 bytes @ 0x400E0C08) - Data: 00 00 00 00  returns 0x00 (0001ms, 0893ms total)
T09D4 067:750 JLINK_IsHalted()  returns TRUE (0000ms, 0893ms total)
T3690 067:874 JLINK_ReadMem (0x400E0C08, 0x0004 Bytes, ...) -- CPU_ReadMem(4 bytes @ 0x400E0C08) - Data: 00 00 00 00  returns 0x00 (0000ms, 0893ms total)
T09D4 067:957 JLINK_IsHalted()  returns TRUE (0000ms, 0893ms total)
T09D4 068:161 JLINK_IsHalted()  returns TRUE (0000ms, 0893ms total)
T09D4 068:361 JLINK_IsHalted()  returns TRUE (0001ms, 0894ms total)
T09D4 068:567 JLINK_IsHalted()  returns TRUE (0000ms, 0893ms total)
T09D4 068:767 JLINK_IsHalted()  returns TRUE (0000ms, 0893ms total)
T3690 068:874 JLINK_ReadMem (0x400E0C08, 0x0004 Bytes, ...) -- CPU_ReadMem(4 bytes @ 0x400E0C08) - Data: 00 00 00 00  returns 0x00 (0001ms, 0894ms total)
T3690 068:875 JLINK_ReadMem (0x400E0C08, 0x0004 Bytes, ...) -- CPU_ReadMem(4 bytes @ 0x400E0C08) - Data: 00 00 00 00  returns 0x00 (0001ms, 0895ms total)
T3690 068:881 JLINK_ReadMem (0x400E0C08, 0x0004 Bytes, ...) -- CPU_ReadMem(4 bytes @ 0x400E0C08) - Data: 00 00 00 00  returns 0x00 (0001ms, 0896ms total)
T3690 068:894 JLINK_ReadMem (0x400E0C08, 0x0004 Bytes, ...) -- CPU_ReadMem(4 bytes @ 0x400E0C08) - Data: 00 00 00 00  returns 0x00 (0001ms, 0897ms total)
T3690 068:912 JLINK_ReadMem (0x400E0C08, 0x0004 Bytes, ...) -- CPU_ReadMem(4 bytes @ 0x400E0C08) - Data: 00 00 00 00  returns 0x00 (0001ms, 0898ms total)
T09D4 068:968 JLINK_IsHalted()  returns TRUE (0001ms, 0899ms total)
T3690 068:979 JLINK_ReadMem (0x400E0C08, 0x0004 Bytes, ...) -- CPU_ReadMem(4 bytes @ 0x400E0C08) - Data: 00 00 00 00  returns 0x00 (0001ms, 0899ms total)
T09D4 069:170 JLINK_IsHalted()  returns TRUE (0000ms, 0899ms total)
T3690 069:236 JLINK_ReadMem (0x400E0C08, 0x0004 Bytes, ...) -- CPU_ReadMem(4 bytes @ 0x400E0C08) - Data: 01 00 00 00  returns 0x00 (0001ms, 0900ms total)
T09D4 069:372 JLINK_IsHalted()  returns TRUE (0000ms, 0900ms total)
T3690 069:376 JLINK_ResetPullsRESET(ON) (0000ms, 0900ms total)
T3690 069:376 JLINK_ResetNoHalt() >0x10B TIF>Found SW-DP with ID 0x0BD11477 >0x0D TIF> >0x28 TIF> >0x0D TIF> >0x28 TIF> >0x0D TIF> >0x28 TIF> >0x0D TIF> >0x28 TIF> >0x0D TIF> >0x21 TIF> >0x0D TIF> >0x28 TIF>AP map detection skipped. User manually configured AP map.AP[0]: AHB-AP (IDR: Not set) >0x42 TIF> >0x28 TIF> >0x0D TIF> >0x21 TIF> >0x0D TIF> >0x21 TIF> >0x42 TIF> >0x28 TIF> >0x0D TIF> >0x28 TIF> >0x0D TIF> >0x28 TIF> >0x0D TIF> >0x21 TIF> >0x0D TIF> >0x21 TIF>AP[0]: Core found
AP[0]: AHB-AP ROM base: 0xE00FD000 >0x0D TIF> >0x28 TIF> >0x0D TIF> >0x28 TIF> >0x0D TIF> >0x28 TIF> >0x0D TIF> >0x21 TIF> >0x0D TIF> >0x21 TIF>CPUID register: 0x411FC271. Implementer code: 0x41 (ARM)Found Cortex-M7 r1p1, Little endian. -- CPU_ReadMem(4 bytes @ 0xE000EDF0) -- CPU_ReadMem(4 bytes @ 0xE0002000) -- CPU_ReadMem(4 bytes @ 0xE000EDFC) -- CPU_ReadMem(4 bytes @ 0xE0001000) -- CPU_ReadMem(4 bytes @ 0xE000ED88) -- CPU_WriteMem(4 bytes @ 0xE000ED88) -- CPU_ReadMem(4 bytes @ 0xE000ED88)
 -- CPU_WriteMem(4 bytes @ 0xE000ED88)CoreSight components:ROMTbl[0] @ E00FD000 -- CPU_ReadMem(16 bytes @ 0xE00FD000) -- CPU_ReadMem(16 bytes @ 0xE00FEFF0) -- CPU_ReadMem(16 bytes @ 0xE00FEFE0)ROMTbl[0][0]: E00FE000, CID: B105100D, PID: 000BB4C8 ROM TableROMTbl[1] @ E00FE000 -- CPU_ReadMem(16 bytes @ 0xE00FE000) -- CPU_ReadMem(16 bytes @ 0xE00FFFF0) -- CPU_ReadMem(16 bytes @ 0xE00FFFE0)ROMTbl[1][0]: E00FF000, CID: B105100D, PID: 000BB4C7 ROM TableROMTbl[2] @ E00FF000 -- CPU_ReadMem(16 bytes @ 0xE00FF000)
 -- CPU_ReadMem(16 bytes @ 0xE000EFF0) -- CPU_ReadMem(16 bytes @ 0xE000EFE0)ROMTbl[2][0]: E000E000, CID: B105E00D, PID: 000BB00C SCS -- CPU_WriteMem(4 bytes @ 0xE0001000) -- CPU_ReadMem(16 bytes @ 0xE0001FF0) -- CPU_ReadMem(16 bytes @ 0xE0001FE0)ROMTbl[2][1]: E0001000, CID: B105E00D, PID: 000BB002 DWT -- CPU_ReadMem(16 bytes @ 0xE0002FF0) -- CPU_ReadMem(16 bytes @ 0xE0002FE0)ROMTbl[2][2]: E0002000, CID: B105E00D, PID: 000BB00E FPB -- CPU_ReadMem(16 bytes @ 0xE0000FF0)
 -- CPU_ReadMem(16 bytes @ 0xE0000FE0)ROMTbl[2][3]: E0000000, CID: B105E00D, PID: 000BB001 ITM -- CPU_ReadMem(16 bytes @ 0xE00FF010) -- CPU_ReadMem(16 bytes @ 0xE0041FF0) -- CPU_ReadMem(16 bytes @ 0xE0041FE0)ROMTbl[1][1]: E0041000, CID: B105900D, PID: 001BB975 ETM-M7 -- CPU_ReadMem(16 bytes @ 0xE00FE010) -- CPU_ReadMem(16 bytes @ 0xE0040FF0) -- CPU_ReadMem(16 bytes @ 0xE0040FE0)ROMTbl[0][1]: E0040000, CID: B105900D, PID: 000BB9A9 TPIU-M7 -- CPU_ReadMem(16 bytes @ 0xE00FD010)
 -- CPU_ReadMem(4 bytes @ 0xE000ED78)Cache: Separate I- and D-cache. (0142ms, 1042ms total)
T3690 069:376  -- CPU_WriteMem(4 bytes @ 0xE000ED84) -- CPU_ReadMem(4 bytes @ 0xE000ED80)I-Cache L1: 16 KB, 256 Sets, 32 Bytes/Line, 2-Way -- CPU_WriteMem(4 bytes @ 0xE000ED84) -- CPU_ReadMem(4 bytes @ 0xE000ED80)D-Cache L1: 16 KB, 128 Sets, 32 Bytes/Line, 4-Way
                JLINK_Reset() -- CPU_WriteMem(4 bytes @ 0xE000EDF0) -- CPU_WriteMem(4 bytes @ 0xE000EDFC) >0x35 TIF> -- CPU_WriteMem(4 bytes @ 0xE000ED0C) >0x0D TIF> >0x28 TIF> -- CPU_ReadMem(4 bytes @ 0xE000EDF0) -- CPU_ReadMem(4 bytes @ 0xE000EDF0) -- CPU_WriteMem(4 bytes @ 0xE000EDF0) -- CPU_WriteMem(4 bytes @ 0xE000EDFC) -- CPU_ReadMem(4 bytes @ 0xE000EDF0) -- CPU_WriteMem(4 bytes @ 0xE0002000) -- CPU_ReadMem(4 bytes @ 0xE000EDFC) -- CPU_ReadMem(4 bytes @ 0xE0001000) (0113ms, 0113ms total)
                JLINK_Go() -- CPU_ReadMem(4 bytes @ 0xE0001000) -- CPU_WriteMem(4 bytes @ 0xE0001004) (0002ms, 0115ms total)
               (0265ms, 1165ms total)
T3690 069:642 JLINK_ExecCommand("ProjectFile = C:\Users\Daniel Gonzalez\Dropbox (UFL)\Spring2018\Senior_Design\SeniorDesignRepo\Atmel_Projects\GatorScribe\GatorScribe\jlink.config", ...).   returns 0x00 (0007ms, 1172ms total)
T3690 069:658 JLINK_ExecCommand("Device = ATSAMV71Q21", ...).   returns 0x00 (0017ms, 1189ms total)
T3690 069:675 JLINK_TIF_Select(JLINKARM_TIF_SWD)  returns 0x00 (0000ms, 1189ms total)
T3690 069:675 JLINK_SetSpeed(4000) (0001ms, 1190ms total)
T3690 069:676 JLINK_ResetPullsRESET(OFF) (0000ms, 1190ms total)
T3690 069:676 JLINK_Connect() >0x10B TIF>Found SW-DP with ID 0x0BD11477 >0x0D TIF> >0x28 TIF> >0x0D TIF> >0x28 TIF> >0x0D TIF> >0x28 TIF> >0x0D TIF> >0x28 TIF> >0x0D TIF> >0x21 TIF> >0x0D TIF> >0x28 TIF>AP map detection skipped. User manually configured AP map.AP[0]: AHB-AP (IDR: Not set) >0x42 TIF> >0x28 TIF> >0x0D TIF> >0x21 TIF> >0x0D TIF> >0x21 TIF> >0x42 TIF> >0x28 TIF> >0x0D TIF> >0x28 TIF> >0x0D TIF> >0x28 TIF> >0x0D TIF> >0x21 TIF> >0x0D TIF> >0x21 TIF>AP[0]: Core found
AP[0]: AHB-AP ROM base: 0xE00FD000 >0x0D TIF> >0x28 TIF> >0x0D TIF> >0x28 TIF> >0x0D TIF> >0x28 TIF> >0x0D TIF> >0x21 TIF> >0x0D TIF> >0x21 TIF>CPUID register: 0x411FC271. Implementer code: 0x41 (ARM)Found Cortex-M7 r1p1, Little endian. -- CPU_ReadMem(4 bytes @ 0xE000EDF0) -- CPU_ReadMem(4 bytes @ 0xE0002000) -- CPU_ReadMem(4 bytes @ 0xE000EDFC) -- CPU_ReadMem(4 bytes @ 0xE0001000) -- CPU_WriteMem(4 bytes @ 0xE0001000) -- CPU_ReadMem(4 bytes @ 0xE000ED88) -- CPU_WriteMem(4 bytes @ 0xE000ED88)
 -- CPU_ReadMem(4 bytes @ 0xE000ED88) -- CPU_WriteMem(4 bytes @ 0xE000ED88)CoreSight components:ROMTbl[0] @ E00FD000 -- CPU_ReadMem(16 bytes @ 0xE00FD000) -- CPU_ReadMem(16 bytes @ 0xE00FEFF0) -- CPU_ReadMem(16 bytes @ 0xE00FEFE0)ROMTbl[0][0]: E00FE000, CID: B105100D, PID: 000BB4C8 ROM TableROMTbl[1] @ E00FE000 -- CPU_ReadMem(16 bytes @ 0xE00FE000) -- CPU_ReadMem(16 bytes @ 0xE00FFFF0) -- CPU_ReadMem(16 bytes @ 0xE00FFFE0)ROMTbl[1][0]: E00FF000, CID: B105100D, PID: 000BB4C7 ROM TableROMTbl[2] @ E00FF000
 -- CPU_ReadMem(16 bytes @ 0xE00FF000) -- CPU_ReadMem(16 bytes @ 0xE000EFF0) -- CPU_ReadMem(16 bytes @ 0xE000EFE0)ROMTbl[2][0]: E000E000, CID: B105E00D, PID: 000BB00C SCS -- CPU_ReadMem(16 bytes @ 0xE0001FF0) -- CPU_ReadMem(16 bytes @ 0xE0001FE0)ROMTbl[2][1]: E0001000, CID: B105E00D, PID: 000BB002 DWT -- CPU_ReadMem(16 bytes @ 0xE0002FF0) -- CPU_ReadMem(16 bytes @ 0xE0002FE0)ROMTbl[2][2]: E0002000, CID: B105E00D, PID: 000BB00E FPB -- CPU_ReadMem(16 bytes @ 0xE0000FF0)
 -- CPU_ReadMem(16 bytes @ 0xE0000FE0)ROMTbl[2][3]: E0000000, CID: B105E00D, PID: 000BB001 ITM -- CPU_ReadMem(16 bytes @ 0xE00FF010) -- CPU_ReadMem(16 bytes @ 0xE0041FF0) -- CPU_ReadMem(16 bytes @ 0xE0041FE0)ROMTbl[1][1]: E0041000, CID: B105900D, PID: 001BB975 ETM-M7 -- CPU_ReadMem(16 bytes @ 0xE00FE010) -- CPU_ReadMem(16 bytes @ 0xE0040FF0) -- CPU_ReadMem(16 bytes @ 0xE0040FE0)ROMTbl[0][1]: E0040000, CID: B105900D, PID: 000BB9A9 TPIU-M7 -- CPU_ReadMem(16 bytes @ 0xE00FD010)
 -- CPU_ReadMem(4 bytes @ 0xE000ED78)Cache: Separate I- and D-cache. (0153ms, 1343ms total)
T3690 069:676  -- CPU_WriteMem(4 bytes @ 0xE000ED84) -- CPU_ReadMem(4 bytes @ 0xE000ED80)I-Cache L1: 16 KB, 256 Sets, 32 Bytes/Line, 2-Way -- CPU_WriteMem(4 bytes @ 0xE000ED84) -- CPU_ReadMem(4 bytes @ 0xE000ED80)D-Cache L1: 16 KB, 128 Sets, 32 Bytes/Line, 4-Way  returns 0x00 (0156ms, 1346ms total)
T3690 069:832 JLINK_Halt()  returns 0x00 (0003ms, 1349ms total)
T3690 069:836 JLINK_WriteMem(0x400E0C04, 0x0004 Bytes, ...) - Data: 0B 01 00 5A -- CPU_WriteMem(4 bytes @ 0x400E0C04)  returns 0x04 (0002ms, 1351ms total)
T3690 069:838 JLINK_ReadMem (0x400E0C08, 0x0004 Bytes, ...) -- CPU_ReadMem(4 bytes @ 0x400E0C08) - Data: 01 00 00 00  returns 0x00 (0000ms, 1351ms total)
T3690 069:838 JLINK_SetResetType(JLINKARM_CM3_RESET_TYPE_NORMAL)  returns JLINKARM_CM3_RESET_TYPE_NORMAL (0000ms, 1351ms total)
T3690 069:838 JLINK_Reset() -- CPU_WriteMem(4 bytes @ 0xE000EDF0) -- CPU_WriteMem(4 bytes @ 0xE000EDFC) >0x35 TIF> -- CPU_WriteMem(4 bytes @ 0xE000ED0C) >0x0D TIF> >0x28 TIF> -- CPU_ReadMem(4 bytes @ 0xE000EDF0) -- CPU_ReadMem(4 bytes @ 0xE000EDF0) -- CPU_WriteMem(4 bytes @ 0xE000EDF0) -- CPU_WriteMem(4 bytes @ 0xE000EDFC) -- CPU_ReadMem(4 bytes @ 0xE000EDF0) -- CPU_WriteMem(4 bytes @ 0xE0002000) -- CPU_ReadMem(4 bytes @ 0xE000EDFC) -- CPU_ReadMem(4 bytes @ 0xE0001000) (0072ms, 1423ms total)
T3690 069:921 JLINK_JTAG_GetDeviceID(DeviceIndex = 0)  returns 0x00 (0000ms, 1423ms total)
T3690 069:921 JLINK_ReadMemU32(0x400E0940, 0x0001 Items, ...) -- CPU_ReadMem(4 bytes @ 0x400E0940) - Data: 01 0E 22 A1  returns 0x01 (0004ms, 1427ms total)
T3690 069:925 JLINK_ReadMemU32(0x400E0944, 0x0001 Items, ...) -- CPU_ReadMem(4 bytes @ 0x400E0944) - Data: 02 00 00 00  returns 0x01 (0007ms, 1434ms total)
T0CE8 070:002 JLINK_IsHalted()  returns TRUE (0000ms, 1434ms total)
T0CE8 070:002 JLINK_GetMOEs(...) -- CPU_ReadMem(4 bytes @ 0xE000ED30)  returns 0x01 (0018ms, 1452ms total)
T3690 070:020 JLINK_BeginDownload(Flags = 0x00) (0000ms, 1452ms total)
T3690 070:021 JLINK_WriteMem(0x00400000, 0x4000 Bytes, ...) - Data: E8 C8 44 20 39 24 40 00 31 24 40 00 35 24 40 00 ...  returns 0x4000 (0001ms, 1453ms total)
T0CE8 070:022 JLINK_ReadReg(R15 (PC)) -- CPU_ReadMem(4 bytes @ 0xE000ED90) -- CPU_ReadMem(4 bytes @ 0xE000ED94) -- -------------------------------------- -- Start of determining dirty areas in flash cache -- End of determining dirty areas -- Start of preparing flash programming -- Calculating RAM usage -- RAM usage = 2812 Bytes -- Preserving CPU registers -- Preparing memory -- Preparing target -- Downloading RAMCode -- Checking target RAM -- Preparing RAMCode -- End of preparing flash programming
 -- CPU is running at 120000 kHz. -- Start of comparing flash -- CRC check was estimated as fastest method -- Comparing range 0x400000 - 0x403FFF (2 Sectors, 16 KB), using multi-block CRC calculation -- CRC does not match for sectors 0-1 -- End of comparing flash -- Start of erasing sectors -- End of erasing sectors -- Start of flash programming -- Programming range 0x00400000 - 0x00403FFF (002 Sectors, 16 KB) -- End of flash programming -- 0x400000 - 0x403FFF (002 Sectors, 16 KB)
 -- Start of verifying flash -- Checksum calculation was estimated as fastest method -- Checksum is not supported by this flash bank. Switched to CRC method. -- End of verifying flash -- Start of restoring -- Restoring RAMCode -- Restore target -- Restore memory -- Restoring CPU registers -- End of restoring -- Bank 0 @ 0x00400000: 1 range affected (16384 bytes) -- Total time needed: 0.198s (Prepare: 0.042s, Compare: 0.008s, Erase: 0.000s, Program: 0.137s, Verify: 0.000s, Restore: 0.009s)
  returns 0xFFFFFFFE (0205ms, 1658ms total)
T3690 070:227 JLINK_WriteMem(0x00404000, 0x2D88 Bytes, ...) - Data: 11 DD 48 1C 10 32 07 28 11 92 8C E8 A0 00 10 90 ...  returns 0x2D88 (0000ms, 1658ms total)
T3690 070:228 JLINK_WriteMem(0x00406D88, 0x0008 Bytes, ...) - Data: 60 F1 FF 7F 01 00 00 00  returns 0x08 (0000ms, 1658ms total)
T3690 070:229 JLINK_WriteMem(0x00406D90, 0x0A08 Bytes, ...) - Data: BF F3 5F 8F 01 38 FB D1 70 47 00 00 00 98 44 20 ...  returns 0xA08 (0000ms, 1658ms total)
T3690 070:255 JLINK_EndDownload() -- CPU_ReadMem(4 bytes @ 0xE000ED90) -- CPU_ReadMem(4 bytes @ 0xE000ED94) -- -------------------------------------- -- Start of determining dirty areas in flash cache -- End of determining dirty areas -- Start of preparing flash programming -- Calculating RAM usage -- RAM usage = 5884 Bytes -- Preserving CPU registers -- Preparing memory -- Preparing target -- Preserving target RAM temporarily used for programming -- Downloading RAMCode
 -- Not first flash download, checking target RAM skipped -- Preparing RAMCode -- End of preparing flash programming -- CPU is running at 120000 kHz. -- Start of comparing flash -- CRC check was estimated as fastest method -- Comparing range 0x404000 - 0x41FFFF (1 Sector, 112 KB), using multi-block CRC calculation -- CRC does not match for sector 0 -- End of comparing flash -- Start of erasing sectors -- End of erasing sectors -- Start of flash programming
 -- Programming range 0x00404000 - 0x0041FFFF (001 Sector, 112 KB) -- End of flash programming -- 0x404000 - 0x41FFFF (001 Sector, 112 KB) -- Start of verifying flash -- Checksum calculation was estimated as fastest method -- Checksum is not supported by this flash bank. Switched to CRC method. -- End of verifying flash -- Start of restoring -- Restoring RAMCode -- Restoring target memory -- Restore target -- Restore memory -- Restoring CPU registers -- End of restoring
 -- Bank 0 @ 0x00400000: 1 range affected (114688 bytes) -- Total time needed: 0.191s (Prepare: 0.066s, Compare: 0.006s, Erase: 0.000s, Program: 0.078s, Verify: 0.002s, Restore: 0.037s)  returns 0x1C000 (0196ms, 1854ms total)
T0CE8 070:452 JLINK_IsHalted()  returns TRUE (0001ms, 1855ms total)
T0CE8 070:698 JLINK_IsHalted()  returns TRUE (0000ms, 1855ms total)
T0CE8 070:956 JLINK_IsHalted()  returns TRUE (0001ms, 1856ms total)
T0CE8 071:206 JLINK_IsHalted()  returns TRUE (0000ms, 1856ms total)
T0CE8 071:444 JLINK_IsHalted()  returns TRUE (0000ms, 1856ms total)
T1EC8 071:598 JLINK_Halt()  returns 0x00 (0006ms, 1862ms total)
T1EC8 071:604 JLINK_ReadReg(R15 (PC))  returns 0xFFFFFFFE (0000ms, 1862ms total)
T1EC8 071:604 JLINK_ReadReg(R13 (SP))  returns 0xFFFFFFFC (0000ms, 1862ms total)
T1EC8 071:613 JLINK_ReadMem (0x00000000, 0x0002 Bytes, ...) -- CPU_ReadMem(2 bytes @ 0x00000000) - Data: E8 C8  returns 0x00 (0001ms, 1863ms total)
T0CE8 071:682 JLINK_IsHalted()  returns TRUE (0000ms, 1863ms total)
T0CE8 071:895 JLINK_IsHalted()  returns TRUE (0000ms, 1863ms total)
T0CE8 072:113 JLINK_IsHalted()  returns TRUE (0018ms, 1881ms total)
T0CE8 072:331 JLINK_IsHalted()  returns TRUE (0001ms, 1864ms total)
T1EC8 072:357 JLINK_ReadReg(R0)  returns 0x00000000 (0000ms, 1863ms total)
T1EC8 072:357 JLINK_ReadReg(R1)  returns 0x00000000 (0000ms, 1863ms total)
T1EC8 072:357 JLINK_ReadReg(R2)  returns 0x00000000 (0000ms, 1863ms total)
T1EC8 072:357 JLINK_ReadReg(R3)  returns 0x00000000 (0000ms, 1863ms total)
T1EC8 072:357 JLINK_ReadReg(R4)  returns 0x00000000 (0000ms, 1863ms total)
T1EC8 072:357 JLINK_ReadReg(R5)  returns 0x00000000 (0000ms, 1863ms total)
T1EC8 072:358 JLINK_ReadReg(R6)  returns 0x00000000 (0000ms, 1863ms total)
T1EC8 072:358 JLINK_ReadReg(R7)  returns 0x00000000 (0000ms, 1863ms total)
T1EC8 072:358 JLINK_ReadReg(R8)  returns 0x00000000 (0000ms, 1863ms total)
T1EC8 072:358 JLINK_ReadReg(R9)  returns 0x00000000 (0000ms, 1863ms total)
T1EC8 072:358 JLINK_ReadReg(R10)  returns 0x00000000 (0000ms, 1863ms total)
T1EC8 072:358 JLINK_ReadReg(R11)  returns 0x00000000 (0000ms, 1863ms total)
T1EC8 072:358 JLINK_ReadReg(R12)  returns 0x00000000 (0000ms, 1863ms total)
T1EC8 072:358 JLINK_ReadReg(R13 (SP))  returns 0xFFFFFFFC (0000ms, 1863ms total)
T1EC8 072:358 JLINK_ReadReg(R14)  returns 0xFFFFFFFF (0000ms, 1863ms total)
T1EC8 072:358 JLINK_ReadReg(R15 (PC))  returns 0xFFFFFFFE (0000ms, 1863ms total)
T1EC8 072:358 JLINK_ReadReg(XPSR)  returns 0x01000000 (0000ms, 1863ms total)
T1EC8 072:358 JLINK_ReadReg(MSP)  returns 0xFFFFFFFC (0000ms, 1863ms total)
T1EC8 072:358 JLINK_ReadReg(PSP)  returns 0x00000000 (0000ms, 1863ms total)
T1EC8 072:358 JLINK_ReadReg(PRIMASK)  returns 0x00000000 (0000ms, 1863ms total)
T1EC8 072:358 JLINK_ReadReg(BASEPRI)  returns 0x00000000 (0000ms, 1863ms total)
T1EC8 072:358 JLINK_ReadReg(FAULTMASK)  returns 0x00000000 (0000ms, 1863ms total)
T1EC8 072:358 JLINK_ReadReg(CONTROL)  returns 0x00000000 (0000ms, 1863ms total)
T1EC8 072:358 JLINK_ReadReg(FPSCR)  returns 0x00000000 (0004ms, 1867ms total)
T1EC8 072:362 JLINK_ReadReg(FPS0)  returns 0x00000000 (0000ms, 1867ms total)
T1EC8 072:362 JLINK_ReadReg(FPS1)  returns 0x00000000 (0000ms, 1867ms total)
T1EC8 072:363 JLINK_ReadReg(FPS2)  returns 0x00000000 (0000ms, 1867ms total)
T1EC8 072:363 JLINK_ReadReg(FPS3)  returns 0x00000000 (0000ms, 1867ms total)
T1EC8 072:363 JLINK_ReadReg(FPS4)  returns 0x00000000 (0000ms, 1867ms total)
T1EC8 072:363 JLINK_ReadReg(FPS5)  returns 0x00000000 (0000ms, 1867ms total)
T1EC8 072:363 JLINK_ReadReg(FPS6)  returns 0x00000000 (0000ms, 1867ms total)
T1EC8 072:363 JLINK_ReadReg(FPS7)  returns 0x00000000 (0000ms, 1867ms total)
T1EC8 072:363 JLINK_ReadReg(FPS8)  returns 0x00000000 (0000ms, 1867ms total)
T1EC8 072:363 JLINK_ReadReg(FPS9)  returns 0x00000000 (0000ms, 1867ms total)
T1EC8 072:363 JLINK_ReadReg(FPS10)  returns 0x00000000 (0000ms, 1867ms total)
T1EC8 072:363 JLINK_ReadReg(FPS11)  returns 0x00000000 (0000ms, 1867ms total)
T1EC8 072:363 JLINK_ReadReg(FPS12)  returns 0x00000000 (0000ms, 1867ms total)
T1EC8 072:363 JLINK_ReadReg(FPS13)  returns 0x00000000 (0000ms, 1867ms total)
T1EC8 072:363 JLINK_ReadReg(FPS14)  returns 0x00000000 (0000ms, 1867ms total)
T1EC8 072:363 JLINK_ReadReg(FPS15)  returns 0xFFFFFFFF (0000ms, 1867ms total)
T1EC8 072:363 JLINK_ReadReg(FPS16)  returns 0x00000000 (0001ms, 1868ms total)
T1EC8 072:364 JLINK_ReadReg(FPS17)  returns 0x00000000 (0000ms, 1868ms total)
T1EC8 072:364 JLINK_ReadReg(FPS18)  returns 0x00000000 (0000ms, 1868ms total)
T1EC8 072:364 JLINK_ReadReg(FPS19)  returns 0x00000000 (0000ms, 1868ms total)
T1EC8 072:364 JLINK_ReadReg(FPS20)  returns 0x00000000 (0000ms, 1868ms total)
T1EC8 072:364 JLINK_ReadReg(FPS21)  returns 0x00000000 (0000ms, 1868ms total)
T1EC8 072:364 JLINK_ReadReg(FPS22)  returns 0x00000000 (0000ms, 1868ms total)
T1EC8 072:364 JLINK_ReadReg(FPS23)  returns 0x00000000 (0000ms, 1868ms total)
T1EC8 072:364 JLINK_ReadReg(FPS24)  returns 0x00000000 (0000ms, 1868ms total)
T1EC8 072:364 JLINK_ReadReg(FPS25)  returns 0x00000000 (0000ms, 1868ms total)
T1EC8 072:364 JLINK_ReadReg(FPS26)  returns 0x00000000 (0000ms, 1868ms total)
T1EC8 072:364 JLINK_ReadReg(FPS27)  returns 0x00000000 (0000ms, 1868ms total)
T1EC8 072:365 JLINK_ReadReg(FPS28)  returns 0x00000000 (0000ms, 1868ms total)
T1EC8 072:365 JLINK_ReadReg(FPS29)  returns 0x00000000 (0000ms, 1868ms total)
T1EC8 072:365 JLINK_ReadReg(FPS30)  returns 0x00000000 (0000ms, 1868ms total)
T1EC8 072:365 JLINK_ReadReg(FPS31)  returns 0xFFFFFFFF (0000ms, 1868ms total)
T1EC8 072:366 JLINK_ReadMem (0x00000000, 0x0002 Bytes, ...) -- CPU_ReadMem(2 bytes @ 0x00000000) - Data: E8 C8  returns 0x00 (0001ms, 1869ms total)
T1EC8 072:409 JLINK_SetResetType(JLINKARM_CM3_RESET_TYPE_NORMAL)  returns JLINKARM_CM3_RESET_TYPE_NORMAL (0000ms, 1869ms total)
T1EC8 072:409 JLINK_Reset() -- CPU_WriteMem(4 bytes @ 0xE000EDF0) -- CPU_WriteMem(4 bytes @ 0xE000EDFC) >0x35 TIF> -- CPU_WriteMem(4 bytes @ 0xE000ED0C) >0x0D TIF> >0x28 TIF> -- CPU_ReadMem(4 bytes @ 0xE000EDF0) -- CPU_ReadMem(4 bytes @ 0xE000EDF0) -- CPU_WriteMem(4 bytes @ 0xE000EDF0) -- CPU_WriteMem(4 bytes @ 0xE000EDFC) -- CPU_ReadMem(4 bytes @ 0xE000EDF0) -- CPU_WriteMem(4 bytes @ 0xE0002000) -- CPU_ReadMem(4 bytes @ 0xE000EDFC) -- CPU_ReadMem(4 bytes @ 0xE0001000) (0070ms, 1939ms total)
T0CE8 072:480 JLINK_IsHalted()  returns TRUE (0000ms, 1939ms total)
T0CE8 072:480 JLINK_GetMOEs(...) -- CPU_ReadMem(4 bytes @ 0xE000ED30)  returns 0x01 (0000ms, 1939ms total)
T0CE8 072:480 JLINK_ReadReg(R15 (PC))  returns 0x00402438 (0000ms, 1939ms total)
T1EC8 072:491 JLINK_ReadReg(R15 (PC))  returns 0x00402438 (0000ms, 1939ms total)
T1EC8 072:491 JLINK_ReadReg(R13 (SP))  returns 0x2044C8E8 (0000ms, 1939ms total)
T1EC8 072:548 JLINK_ReadMemHW(0x00402438, 0x0004 Bytes, ...) -- CPU_ReadMem(4 bytes @ 0x00402438) - Data: 20 49 21 48  returns 0x00 (0001ms, 1940ms total)
T1EC8 072:636 JLINK_ReadMemHW(0x004028F0, 0x0001 Bytes, ...) -- CPU_ReadMem(1 bytes @ 0x004028F0) - Data: 2D  returns 0x00 (0000ms, 1940ms total)
T1EC8 072:695 JLINK_ReadReg(R15 (PC))  returns 0x00402438 (0000ms, 1940ms total)
T1EC8 072:697 JLINK_GetNumBPUnits(Type = 0xFFFFFF02)  returns 0x08 (0000ms, 1940ms total)
T1EC8 072:697 JLINK_SetBPEx(Addr = 0x004028F0, Type = 0xFFFFFFF2)  returns 0x00000001 (0000ms, 1940ms total)
T1EC8 072:697 JLINK_GetBPInfo(BPHandle = 1)  returns 0x00 (0000ms, 1940ms total)
T1EC8 072:698 JLINK_Go() -- CPU_WriteMem(4 bytes @ 0xE0002000) -- CPU_ReadMem(4 bytes @ 0xE0001000) -- CPU_WriteMem(4 bytes @ 0xE000ED30) -- CPU_WriteMem(4 bytes @ 0xE0002008) -- CPU_WriteMem(4 bytes @ 0xE000200C) -- CPU_WriteMem(4 bytes @ 0xE0002010) -- CPU_WriteMem(4 bytes @ 0xE0002014) -- CPU_WriteMem(4 bytes @ 0xE0002018) -- CPU_WriteMem(4 bytes @ 0xE000201C) -- CPU_WriteMem(4 bytes @ 0xE0002020) -- CPU_WriteMem(4 bytes @ 0xE0002024) -- CPU_WriteMem(4 bytes @ 0xE0001004) (0005ms, 1945ms total)
T0CE8 072:703 JLINK_IsHalted()  returns FALSE (0001ms, 1946ms total)
T0CE8 072:725 JLINK_IsHalted()  returns FALSE (0001ms, 1946ms total)
T0CE8 072:806 JLINK_IsHalted()  returns TRUE (0003ms, 1948ms total)
T0CE8 072:809 JLINK_GetMOEs(...) -- CPU_ReadMem(4 bytes @ 0xE000ED30)  returns 0x01 (0001ms, 1946ms total)
T0CE8 072:810 JLINK_ReadReg(R15 (PC))  returns 0x004028F0 (0000ms, 1946ms total)
T1EC8 072:818 JLINK_ReadReg(R15 (PC))  returns 0x004028F0 (0000ms, 1946ms total)
T1EC8 072:818 JLINK_ReadReg(R13 (SP))  returns 0x2044C8D8 (0001ms, 1947ms total)
T1EC8 072:820 JLINK_ReadMemHW(0x004028F0, 0x0004 Bytes, ...) -- CPU_ReadMem(4 bytes @ 0x004028F0) - Data: 2D E9 F0 4F  returns 0x00 (0001ms, 1948ms total)
T1EC8 072:852 JLINK_WriteU32(0xE000EDFC, 0x01000000) -- CPU_WriteMem(4 bytes @ 0xE000EDFC)  returns 0x00 (0001ms, 1949ms total)
T1EC8 072:853 JLINK_ReadMem (0xE0001000, 0x0004 Bytes, ...) -- CPU_ReadMem(4 bytes @ 0xE0001000) - Data: 01 00 00 40  returns 0x00 (0001ms, 1950ms total)
T1EC8 072:854 JLINK_WriteU32(0xE0001000, 0x40000001)  returns 0x00 (0000ms, 1950ms total)
T1EC8 072:854 JLINK_WriteU32(0xE0001028, 0x00000100)  returns 0x00 (0000ms, 1950ms total)
T1EC8 072:854 JLINK_ReadMem (0xE0001028, 0x0004 Bytes, ...) -- CPU_WriteMem(4 bytes @ 0xE0001028) -- CPU_ReadMem(4 bytes @ 0xE0001028) - Data: 00 00 00 00  returns 0x00 (0002ms, 1952ms total)
T1EC8 072:856 JLINK_WriteU32(0xE0001024, 0x0000001F)  returns 0x00 (0000ms, 1952ms total)
T1EC8 072:856 JLINK_ReadMem (0xE0001024, 0x0004 Bytes, ...) -- CPU_WriteMem(4 bytes @ 0xE0001024) -- CPU_ReadMem(4 bytes @ 0xE0001024) - Data: 1F 00 00 00  returns 0x00 (0001ms, 1953ms total)
T1EC8 072:858 JLINK_WriteU32(0xE0001038, 0x00000100)  returns 0x00 (0000ms, 1953ms total)
T1EC8 072:858 JLINK_ReadMem (0xE0001038, 0x0004 Bytes, ...) -- CPU_WriteMem(4 bytes @ 0xE0001038) -- CPU_ReadMem(4 bytes @ 0xE0001038) - Data: 00 03 00 00  returns 0x00 (0003ms, 1956ms total)
T1EC8 072:861 JLINK_WriteU32(0xE0001034, 0x0000001F)  returns 0x00 (0000ms, 1956ms total)
T1EC8 072:862 JLINK_ReadMem (0xE0001034, 0x0004 Bytes, ...) -- CPU_WriteMem(4 bytes @ 0xE0001034) -- CPU_ReadMem(4 bytes @ 0xE0001034) - Data: 1F 00 00 00  returns 0x00 (0004ms, 1961ms total)
T1EC8 072:866 JLINK_WriteU32(0xE0001048, 0x00000100)  returns 0x00 (0001ms, 1962ms total)
T1EC8 072:867 JLINK_ReadMem (0xE0001048, 0x0004 Bytes, ...) -- CPU_WriteMem(4 bytes @ 0xE0001048) -- CPU_ReadMem(4 bytes @ 0xE0001048) - Data: 00 00 00 00  returns 0x00 (0011ms, 1973ms total)
T1EC8 072:878 JLINK_WriteU32(0xE0001044, 0x0000001F)  returns 0x00 (0000ms, 1973ms total)
T1EC8 072:878 JLINK_ReadMem (0xE0001044, 0x0004 Bytes, ...) -- CPU_WriteMem(4 bytes @ 0xE0001044) -- CPU_ReadMem(4 bytes @ 0xE0001044) - Data: 1F 00 00 00  returns 0x00 (0008ms, 1981ms total)
T1EC8 072:886 JLINK_WriteU32(0xE0001058, 0x00000100)  returns 0x00 (0000ms, 1981ms total)
T1EC8 072:886 JLINK_ReadMem (0xE0001058, 0x0004 Bytes, ...) -- CPU_WriteMem(4 bytes @ 0xE0001058) -- CPU_ReadMem(4 bytes @ 0xE0001058) - Data: 00 00 00 00  returns 0x00 (0002ms, 1983ms total)
T1EC8 072:888 JLINK_WriteU32(0xE0001054, 0x0000001F)  returns 0x00 (0000ms, 1983ms total)
T1EC8 072:888 JLINK_ReadMem (0xE0001054, 0x0004 Bytes, ...) -- CPU_WriteMem(4 bytes @ 0xE0001054) -- CPU_ReadMem(4 bytes @ 0xE0001054) - Data: 1F 00 00 00  returns 0x00 (0004ms, 1987ms total)
T1EC8 072:893 JLINK_WriteU32(0xE0001020, 0x00000000)  returns 0x00 (0000ms, 1988ms total)
T1EC8 072:893 JLINK_WriteU32(0xE0001024, 0x00000000)  returns 0x00 (0000ms, 1988ms total)
T1EC8 072:893 JLINK_WriteU32(0xE0001028, 0x00000000)  returns 0x00 (0000ms, 1988ms total)
T1EC8 072:893 JLINK_WriteU32(0xE0001030, 0x00000000)  returns 0x00 (0000ms, 1988ms total)
T1EC8 072:893 JLINK_WriteU32(0xE0001034, 0x00000000)  returns 0x00 (0000ms, 1988ms total)
T1EC8 072:893 JLINK_WriteU32(0xE0001038, 0x00000000)  returns 0x00 (0000ms, 1988ms total)
T1EC8 072:893 JLINK_WriteU32(0xE0001040, 0x00000000)  returns 0x00 (0000ms, 1988ms total)
T1EC8 072:893 JLINK_WriteU32(0xE0001044, 0x00000000)  returns 0x00 (0000ms, 1988ms total)
T1EC8 072:893 JLINK_WriteU32(0xE0001048, 0x00000000)  returns 0x00 (0000ms, 1988ms total)
T1EC8 072:893 JLINK_WriteU32(0xE0001050, 0x00000000)  returns 0x00 (0000ms, 1988ms total)
T1EC8 072:893 JLINK_WriteU32(0xE0001054, 0x00000000)  returns 0x00 (0000ms, 1988ms total)
T1EC8 072:893 JLINK_WriteU32(0xE0001058, 0x00000000)  returns 0x00 (0000ms, 1988ms total)
T1EC8 072:893 JLINK_GetBPInfo(BPHandle = 1)  returns 0x00 (0000ms, 1988ms total)
T1EC8 072:893 JLINK_ClrBPEx(BPHandle = 0x00000001)  returns 0x00 (0000ms, 1988ms total)
T1EC8 072:894 JLINK_ReadReg(R15 (PC))  returns 0x004028F0 (0000ms, 1988ms total)
T1EC8 072:896 JLINK_Go() -- CPU_WriteMem(4 bytes @ 0xE0001000) -- CPU_ReadMem(4 bytes @ 0xE0001000) -- CPU_WriteMem(4 bytes @ 0xE000ED30) -- CPU_WriteMem(4 bytes @ 0xE0001020) -- CPU_WriteMem(4 bytes @ 0xE0001030) -- CPU_WriteMem(4 bytes @ 0xE0001040) -- CPU_WriteMem(4 bytes @ 0xE0001050) -- CPU_WriteMem(4 bytes @ 0xE0001024) -- CPU_WriteMem(4 bytes @ 0xE0001034) -- CPU_WriteMem(4 bytes @ 0xE0001044) -- CPU_WriteMem(4 bytes @ 0xE0001054) -- CPU_WriteMem(4 bytes @ 0xE0001028)
 -- CPU_WriteMem(4 bytes @ 0xE0001038) -- CPU_WriteMem(4 bytes @ 0xE0001048) -- CPU_WriteMem(4 bytes @ 0xE0001058) -- CPU_WriteMem(4 bytes @ 0xE0002008) (0018ms, 2006ms total)
T0CE8 072:914 JLINK_IsHalted()  returns FALSE (0001ms, 2007ms total)
T0CE8 072:926 JLINK_IsHalted()  returns FALSE (0001ms, 2007ms total)
T0CE8 072:969 JLINK_IsHalted()  returns FALSE (0001ms, 2007ms total)
T0CE8 073:132 JLINK_IsHalted()  returns FALSE (0000ms, 2006ms total)
T0CE8 073:346 JLINK_IsHalted()  returns FALSE (0002ms, 2008ms total)
T0CE8 073:548 JLINK_IsHalted()  returns FALSE (0000ms, 2006ms total)
T0CE8 073:748 JLINK_IsHalted()  returns FALSE (0002ms, 2008ms total)
T1EC8 073:981 JLINK_Halt()  returns 0x00 (0004ms, 2010ms total)
T0CE8 073:993 JLINK_IsHalted()  returns TRUE (0000ms, 2010ms total)
T0CE8 073:993 JLINK_GetMOEs(...) -- CPU_ReadMem(4 bytes @ 0xE000ED30)  returns 0x01 (0013ms, 2023ms total)
T0CE8 074:006 JLINK_ReadReg(R15 (PC))  returns 0x00402A66 (0000ms, 2023ms total)
T0CE8 074:210 JLINK_IsHalted()  returns TRUE (0000ms, 2023ms total)
T3690 074:262 JLINK_ResetPullsRESET(ON) (0000ms, 2023ms total)
T3690 074:262 JLINK_ResetNoHalt() >0x10B TIF>Found SW-DP with ID 0x0BD11477 >0x0D TIF> >0x28 TIF> >0x0D TIF> >0x28 TIF> >0x0D TIF> >0x28 TIF> >0x0D TIF> >0x28 TIF> >0x0D TIF> >0x21 TIF> >0x0D TIF> >0x28 TIF>AP map detection skipped. User manually configured AP map.AP[0]: AHB-AP (IDR: Not set) >0x42 TIF> >0x28 TIF> >0x0D TIF> >0x21 TIF> >0x0D TIF> >0x21 TIF> >0x42 TIF> >0x28 TIF> >0x0D TIF> >0x28 TIF> >0x0D TIF> >0x28 TIF> >0x0D TIF> >0x21 TIF> >0x0D TIF> >0x21 TIF>AP[0]: Core found
AP[0]: AHB-AP ROM base: 0xE00FD000 >0x0D TIF> >0x28 TIF> >0x0D TIF> >0x28 TIF> >0x0D TIF> >0x28 TIF> >0x0D TIF> >0x21 TIF> >0x0D TIF> >0x21 TIF>CPUID register: 0x411FC271. Implementer code: 0x41 (ARM)Found Cortex-M7 r1p1, Little endian. -- CPU_ReadMem(4 bytes @ 0xE000EDF0) -- CPU_ReadMem(4 bytes @ 0xE0002000) -- CPU_ReadMem(4 bytes @ 0xE0001000) -- CPU_ReadMem(4 bytes @ 0xE000ED88) -- CPU_WriteMem(4 bytes @ 0xE000ED88) -- CPU_ReadMem(4 bytes @ 0xE000ED88) -- CPU_WriteMem(4 bytes @ 0xE000ED88)
CoreSight components:ROMTbl[0] @ E00FD000 -- CPU_ReadMem(16 bytes @ 0xE00FD000) -- CPU_ReadMem(16 bytes @ 0xE00FEFF0) -- CPU_ReadMem(16 bytes @ 0xE00FEFE0)ROMTbl[0][0]: E00FE000, CID: B105100D, PID: 000BB4C8 ROM TableROMTbl[1] @ E00FE000 -- CPU_ReadMem(16 bytes @ 0xE00FE000) -- CPU_ReadMem(16 bytes @ 0xE00FFFF0) -- CPU_ReadMem(16 bytes @ 0xE00FFFE0)ROMTbl[1][0]: E00FF000, CID: B105100D, PID: 000BB4C7 ROM TableROMTbl[2] @ E00FF000 -- CPU_ReadMem(16 bytes @ 0xE00FF000) -- CPU_ReadMem(16 bytes @ 0xE000EFF0)
 -- CPU_ReadMem(16 bytes @ 0xE000EFE0)ROMTbl[2][0]: E000E000, CID: B105E00D, PID: 000BB00C SCS -- CPU_WriteMem(4 bytes @ 0xE0001000) -- CPU_ReadMem(16 bytes @ 0xE0001FF0) -- CPU_ReadMem(16 bytes @ 0xE0001FE0)ROMTbl[2][1]: E0001000, CID: B105E00D, PID: 000BB002 DWT -- CPU_ReadMem(16 bytes @ 0xE0002FF0) -- CPU_ReadMem(16 bytes @ 0xE0002FE0)ROMTbl[2][2]: E0002000, CID: B105E00D, PID: 000BB00E FPB -- CPU_ReadMem(16 bytes @ 0xE0000FF0) -- CPU_ReadMem(16 bytes @ 0xE0000FE0)
ROMTbl[2][3]: E0000000, CID: B105E00D, PID: 000BB001 ITM -- CPU_ReadMem(16 bytes @ 0xE00FF010) -- CPU_ReadMem(16 bytes @ 0xE0041FF0) -- CPU_ReadMem(16 bytes @ 0xE0041FE0)ROMTbl[1][1]: E0041000, CID: B105900D, PID: 001BB975 ETM-M7 -- CPU_ReadMem(16 bytes @ 0xE00FE010) -- CPU_ReadMem(16 bytes @ 0xE0040FF0) -- CPU_ReadMem(16 bytes @ 0xE0040FE0)ROMTbl[0][1]: E0040000, CID: B105900D, PID: 000BB9A9 TPIU-M7 -- CPU_ReadMem(16 bytes @ 0xE00FD010) -- CPU_ReadMem(4 bytes @ 0xE000ED78)Cache: Separate I- and D-cache.
 (0619ms, 2642ms total)
T3690 074:262  -- CPU_WriteMem(4 bytes @ 0xE000ED84) -- CPU_ReadMem(4 bytes @ 0xE000ED80)I-Cache L1: 16 KB, 256 Sets, 32 Bytes/Line, 2-Way -- CPU_WriteMem(4 bytes @ 0xE000ED84) -- CPU_ReadMem(4 bytes @ 0xE000ED80)D-Cache L1: 16 KB, 128 Sets, 32 Bytes/Line, 4-Way
                JLINK_Reset() -- CPU_WriteMem(4 bytes @ 0xE000EDF0) -- CPU_WriteMem(4 bytes @ 0xE000EDFC) >0x35 TIF> -- CPU_WriteMem(4 bytes @ 0xE000ED0C) >0x0D TIF> >0x28 TIF> -- CPU_ReadMem(4 bytes @ 0xE000EDF0) -- CPU_ReadMem(4 bytes @ 0xE000EDF0) -- CPU_WriteMem(4 bytes @ 0xE000EDF0) -- CPU_WriteMem(4 bytes @ 0xE000EDFC) -- CPU_ReadMem(4 bytes @ 0xE000EDF0) -- CPU_WriteMem(4 bytes @ 0xE0002000) -- CPU_ReadMem(4 bytes @ 0xE000EDFC) -- CPU_ReadMem(4 bytes @ 0xE0001000) (0073ms, 0073ms total)
                JLINK_Go() -- CPU_ReadMem(4 bytes @ 0xE0001000) -- CPU_WriteMem(4 bytes @ 0xE0002008) -- CPU_WriteMem(4 bytes @ 0xE000200C) -- CPU_WriteMem(4 bytes @ 0xE0002010) -- CPU_WriteMem(4 bytes @ 0xE0002014) -- CPU_WriteMem(4 bytes @ 0xE0002018) -- CPU_WriteMem(4 bytes @ 0xE000201C) -- CPU_WriteMem(4 bytes @ 0xE0002020) -- CPU_WriteMem(4 bytes @ 0xE0002024) -- CPU_WriteMem(4 bytes @ 0xE0001004) (0005ms, 0078ms total)
               (0700ms, 2723ms total)
